(1787928740.364111) can0 5BB##A8EE8C3C3E45FE6AA8EE8C3C3E45FE6A
(1787928740.454692) can0 25D##5610
(1787928740.564616) can0 2EA##97A89E0C55
(1787928740.658808) can0 5FA##03CF77745969206903CF77745969206903CF7774
(1787928740.752999) can0 762##7589FB6A72D298597589FB6A72D29859
(1787928740.862809) can0 690##A9F0326A9D
(1787928740.956942) can0 21E##4FC3466D92D7B3024FC3466D92D7B3024FC3466D92D7B3024FC3466D92D7B3024FC3466D92D7B3024FC3466D92D7B3024FC3466D92D7B3024FC3466D92D7B302
(1787928741.066836) can0 70D##99A43943
(1787928741.160906) can0 7AF##07
(1787928741.255032) can0 1A3##3C063C718E5CB70F3C063C718E5CB70F3C063C718E5CB70F3C063C718E5CB70F
(1787928741.368687) can0 172##E373F7
(1787928741.468669) can0 72E##C6F0FD0290E6
(1787928741.568916) can0 1E0##03B9D7247030DD6303B9D7247030DD6303B9D7247030DD63
(1787928741.666179) can0 5E1##0D6CE62CFF37CE380D6CE62CFF37CE380D6CE62CFF37CE38
(1787928741.760536) can0 34B##910F823B5822971D910F823B5822971D910F823B5822971D910F823B5822971D
(1787928741.854729) can0 321##20FF7D5FD0EA367F20FF7D5FD0EA367F
(1787928741.965376) can0 76C##DCFC07460F69D8
(1787928742.059942) can0 384##9DC58F02F7D4A71A
(1787928742.154139) can0 1EB##
(1787928742.263956) can0 466##AA17E72F4676186EAA17E72F4676186E
(1787928742.358091) can0 766##B7A6F551475D7D09B7A6F551475D7D09B7A6F551475D7D09B7A6F551475D7D09
(1787928742.467947) can0 259##46954B42
(1787928742.562135) can0 221##FCDFEA34430D54
(1787928742.656301) can0 102##13F88A286EA00B7B13F88A286EA00B7B13F88A286EA00B7B13F88A286EA00B7B
(1787928742.766601) can0 044##
(1787928742.860767) can0 008##C028DB68F4A9F55AC028DB68F4A9F55AC028DB68
(1787928742.954892) can0 09B##0EDB9D3F
(1787928743.064834) can0 24E##48FB092DB599607A
(1787928743.159054) can0 366##FCF6DD03BF3D0D28FCF6DD03BF3D0D28FCF6DD03BF3D0D28FCF6DD03BF3D0D28FCF6DD03BF3D0D28FCF6DD03BF3D0D28FCF6DD03BF3D0D28FCF6DD03BF3D0D28
(1787928743.268861) can0 4C4##64FB60
(1787928743.363188) can0 11A##
(1787928743.457333) can0 27D##8A2A8C3BC2BA80298A2A8C3BC2BA80298A2A8C3BC2BA8029
(1787928743.567219) can0 12C##8B0EB47734E92D7D
(1787928743.661352) can0 323##28932358BE0BDF5328932358BE0BDF5328932358
(1787928743.771211) can0 46F##C090D012BD8E
(1787928743.865343) can0 0EF##7228344D55248A4B7228344D
(1787928743.959474) can0 608##14629773CCE2B53C14629773CCE2B53C14629773CCE2B53C14629773CCE2B53C14629773CCE2B53C14629773CCE2B53C14629773CCE2B53C14629773CCE2B53C
(1787928744.069292) can0 3B2##B2D99A53CCDC325B
(1787928744.163493) can0 0D9##E966B31B56F3F82FE966B31B56F3F82F
(1787928744.257674) can0 216##18AE79
(1787928744.367568) can0 57B##77B41C
(1787928744.461705) can0 3EE##5DD4726E5DB0AC2F5DD4726E5DB0AC2F5DD4726E5DB0AC2F5DD4726E5DB0AC2F5DD4726E5DB0AC2F5DD4726E5DB0AC2F5DD4726E5DB0AC2F5DD4726E5DB0AC2F
(1787928744.571561) can0 5D6##1B3F8002C51648481B3F8002C51648481B3F8002C51648481B3F8002C5164848
(1787928744.665698) can0 126##1A3BD2132F1FF87F1A3BD2132F1FF87F1A3BD2132F1FF87F1A3BD2132F1FF87F
(1787928744.759835) can0 6FC##FB01AE3CAE320238FB01AE3CAE320238FB01AE3CAE320238FB01AE3CAE320238FB01AE3CAE320238FB01AE3CAE320238
(1787928744.869989) can0 2A7##7B0F35138033A6617B0F35138033A6617B0F35138033A6617B0F35138033A661
(1787928744.964124) can0 188##D6269F11
(1787928745.058560) can0 7D7##E15EA37453CDD706E15EA37453CDD706E15EA37453CDD706E15EA37453CDD706E15EA37453CDD706E15EA37453CDD706E15EA37453CDD706E15EA37453CDD706
(1787928745.168363) can0 192##F1956B218185036E
(1787928745.262500) can0 2F7##DE35B01DCD100230DE35B01DCD100230DE35B01DCD100230DE35B01DCD100230DE35B01DCD100230DE35B01DCD100230
(1787928745.372646) can0 76C##92274A7892C03F5292274A78
(1787928745.466818) can0 487##C1DF37528363AB10C1DF37528363AB10C1DF37528363AB10
(1787928745.561305) can0 7DB##3296AD4882FAE74D3296AD4882FAE74D3296AD4882FAE74D3296AD4882FAE74D
(1787928745.671269) can0 56A##022E8E2FF2764B43022E8E2FF2764B43022E8E2FF2764B43022E8E2FF2764B43
(1787928745.765941) can0 411##910A0064E823F310
(1787928745.860164) can0 1C7##3BF1
(1787928745.969948) can0 4CA##DB409056C1D7630DDB409056C1D7630DDB409056C1D7630DDB409056C1D7630D
(1787928746.064126) can0 17B##8FE8653DE7C0365A8FE8653D
(1787928746.158355) can0 3B3##7A
(1787928746.268174) can0 2CE##BD2B0115A9725255BD2B0115A9725255BD2B0115
(1787928746.362282) can0 2F8##2B6D3A236300C32C2B6D3A236300C32C2B6D3A236300C32C2B6D3A236300C32C2B6D3A236300C32C2B6D3A236300C32C2B6D3A236300C32C2B6D3A236300C32C
(1787928746.472514) can0 79C##55770E70AD835C4455770E70AD835C4455770E70AD835C4455770E70AD835C44
(1787928746.566670) can0 005##96A74F55CD19
(1787928746.660813) can0 358##27
(1787928746.770648) can0 7FE##E43F
(1787928746.864753) can0 4BB##61D29C
(1787928746.974940) can0 094##A840600C62AB5B0DA840600C62AB5B0DA840600C
(1787928747.069289) can0 517##0B1EAE620FF8
(1787928747.163436) can0 655##72F8182FF295
(1787928747.273231) can0 663##9F19FE7C6916A76C
(1787928747.367529) can0 1AE##3630E32C07
(1787928747.461635) can0 207##2945FD6A057AB9652945FD6A057AB9652945FD6A057AB9652945FD6A057AB965
(1787928747.571504) can0 35F##7F8B1F551AA89E487F8B1F551AA89E487F8B1F551AA89E487F8B1F551AA89E48
(1787928747.665651) can0 580##89
(1787928747.775547) can0 1BC##77
(1787928747.869730) can0 597##E35EE7
(1787928747.964022) can0 2B9##DF911C361D
(1787928748.073964) can0 71D##86772F60CCB85D4D86772F60CCB85D4D86772F60CCB85D4D86772F60CCB85D4D86772F60CCB85D4D86772F60CCB85D4D
(1787928748.168362) can0 4B4##D395456DBBC6D044D395456DBBC6D044D395456DBBC6D044
(1787928748.262525) can0 519##C0408A2A78C8C337C0408A2A78C8C337C0408A2A78C8C337
(1787928748.372311) can0 00A##
(1787928748.466547) can0 221##9FF3F319DDDB35339FF3F319DDDB35339FF3F319
(1787928748.576636) can0 24D##B142C73CE4BF7F
(1787928748.670753) can0 49A##D1BBFA29
(1787928748.765445) can0 0E9##
(1787928748.875297) can0 12F##D378342BE365
(1787928748.969411) can0 7B2##9E2C6B5DCB9C
(1787928749.063548) can0 1A2##43654777AC49760C43654777AC49760C43654777AC49760C43654777AC49760C43654777AC49760C43654777AC49760C
(1787928749.173484) can0 19E##37578501BF63
(1787928749.267978) can0 6F1##9D3F3B593E59
(1787928749.377795) can0 7ED##23194A238704D14823194A238704D14823194A238704D14823194A238704D14823194A238704D14823194A238704D148
(1787928749.471876) can0 3E2##DB73CB44
(1787928749.566707) can0 2A5##D2DC3640D41B8E40D2DC3640D41B8E40D2DC3640
(1787928749.677846) can0 442##B7812859F4
(1787928749.772818) can0 44B##C0184920EE
(1787928749.867771) can0 3B3##9A9718
(1787928749.963048) can0 3D9##11
(1787928750.072888) can0 1A8##0914BA4E9509C5050914BA4E9509C5050914BA4E9509C5050914BA4E9509C5050914BA4E9509C5050914BA4E9509C505
(1787928750.167059) can0 2FC##1D0E964EDE9E1C3A1D0E964EDE9E1C3A1D0E964EDE9E1C3A
(1787928750.277095) can0 221##AABB7C1CC624A56C
(1787928750.371224) can0 643##9A40332D8552B04B9A40332D8552B04B9A40332D8552B04B
(1787928750.465427) can0 622##7A
(1787928750.575324) can0 0A6##5BA0A640598C787B5BA0A640598C787B
(1787928750.669595) can0 53D##ABE1A04117B9
(1787928750.779469) can0 6C7##E273794B6F607462E273794B6F607462E273794B6F607462E273794B6F607462
(1787928750.873608) can0 36B##056A3968680EA34E056A3968680EA34E056A3968
(1787928750.967740) can0 518##46AD
(1787928751.077554) can0 21A##
(1787928751.171816) can0 16D##E312915D8FEF0E4AE312915D
(1787928751.265955) can0 6EA##FC411316904FA428FC411316904FA428FC411316904FA428FC411316904FA428
(1787928751.375933) can0 097##E9DB1C24D42D153B
(1787928751.470153) can0 24E##EBE69E2E15
(1787928751.580337) can0 052##85A14A3FBDEBC30685A14A3FBDEBC30685A14A3FBDEBC30685A14A3FBDEBC306
(1787928751.674660) can0 2B9##25FA6655D197832025FA6655D1978320
(1787928751.769234) can0 3AC##0A4F046CC67D84280A4F046CC67D84280A4F046CC67D8428
(1787928751.879082) can0 05C##233E653AC9115305233E653A
(1787928751.973247) can0 7A2##5801624F8C26
(1787928752.067457) can0 263##1C76DC1DFA
(1787928752.177376) can0 5AD##CF28D833FB
(1787928752.271570) can0 79A##10817E31EC67433B10817E31EC67433B
(1787928752.371579) can0 288##AA53074241
(1787928752.481728) can0 61F##12E55E11CBB1A07612E55E11CBB1A07612E55E11CBB1A07612E55E11CBB1A07612E55E11CBB1A07612E55E11CBB1A07612E55E11CBB1A07612E55E11CBB1A076
(1787928752.575887) can0 53B##912F251F9805F878912F251F9805F878912F251F9805F878
(1787928752.670074) can0 725##61174B7EC7
(1787928752.780761) can0 6BB##53CD48201FF17D1353CD48201FF17D13
(1787928752.876068) can0 40F##19EC400CBC81516F19EC400CBC81516F19EC400CBC81516F19EC400CBC81516F19EC400CBC81516F19EC400CBC81516F19EC400CBC81516F19EC400CBC81516F
(1787928752.971110) can0 574##B7C1F9430FA5D527
(1787928753.081143) can0 4A3##FB0C19632B8F1F
(1787928753.175350) can0 55D##6CDCFA6F7C
(1787928753.269810) can0 675##48452F75B0A3233248452F75B0A3233248452F75B0A3233248452F75B0A3233248452F75B0A3233248452F75B0A32332
(1787928753.380167) can0 59A##48A91B2BBF544A2048A91B2B
(1787928753.474331) can0 28E##86FB5A4B4AA15F5F86FB5A4B4AA15F5F
(1787928753.568521) can0 164##6992DD727335362A6992DD72
(1787928753.678365) can0 448##2FB7
(1787928753.772632) can0 36B##CB46BD510EB8
(1787928753.882558) can0 3AD##3947E7600A213B
(1787928753.976701) can0 46C##87B4C937E1
(1787928754.070848) can0 523##9206A948BDDAF8509206A948BDDAF8509206A948BDDAF8509206A948BDDAF8509206A948BDDAF8509206A948BDDAF8509206A948BDDAF8509206A948BDDAF850
(1787928754.180707) can0 6A8##7C2F437137512C2F7C2F437137512C2F
(1787928754.274844) can0 084##81F2
(1787928754.368952) can0 3DB##5B7F753E23000B525B7F753E23000B52
(1787928754.478934) can0 36C##DFA1F27BD796BF3FDFA1F27BD796BF3F
(1787928754.573136) can0 770##E54E87211E6B7808E54E87211E6B7808E54E8721
(1787928754.682946) can0 472##288CB341DEF07C5C288CB341DEF07C5C288CB341DEF07C5C288CB341DEF07C5C288CB341DEF07C5C288CB341DEF07C5C
(1787928754.777119) can0 1C3##C0530273E69E8C25C0530273E69E8C25C0530273E69E8C25C0530273E69E8C25C0530273E69E8C25C0530273E69E8C25C0530273E69E8C25C0530273E69E8C25
(1787928754.871325) can0 27E##A379
(1787928754.981190) can0 22C##5EFAEF16B17A9B4C5EFAEF16B17A9B4C5EFAEF16B17A9B4C5EFAEF16B17A9B4C5EFAEF16B17A9B4C5EFAEF16B17A9B4C5EFAEF16B17A9B4C5EFAEF16B17A9B4C
(1787928755.075408) can0 421##99C4DA60FCC7A84C99C4DA60FCC7A84C99C4DA60FCC7A84C99C4DA60FCC7A84C99C4DA60FCC7A84C99C4DA60FCC7A84C99C4DA60FCC7A84C99C4DA60FCC7A84C
(1787928755.169513) can0 1C9##1FC8B31E35
(1787928755.279437) can0 27F##0D0C2D67F029CC2C0D0C2D67F029CC2C0D0C2D67F029CC2C0D0C2D67F029CC2C0D0C2D67F029CC2C0D0C2D67F029CC2C0D0C2D67F029CC2C0D0C2D67F029CC2C
(1787928755.373564) can0 2AA##0E95
(1787928755.483448) can0 111##FA7F5947D4AA
(1787928755.577615) can0 1E6##BB490004649CEB16BB490004649CEB16
(1787928755.671746) can0 60C##8B45AF7E393877258B45AF7E393877258B45AF7E393877258B45AF7E393877258B45AF7E393877258B45AF7E39387725
(1787928755.781587) can0 47E##EAB212729F40B506EAB21272
(1787928755.876223) can0 4C8##9C085E
(1787928755.970355) can0 378##C7136E09F8358B69C7136E09F8358B69C7136E09
(1787928756.080237) can0 2BA##E85F5716
(1787928756.174357) can0 2C6##801CEB5FD76B
(1787928756.284201) can0 62C##AC16E66212780933AC16E66212780933AC16E662
(1787928756.378323) can0 035##7714F549429EA7
(1787928756.472922) can0 3C5##7BD6
(1787928756.582865) can0 1EC##E3D06F4AB4
(1787928756.677079) can0 0E8##46655F7B61BC5C3446655F7B61BC5C3446655F7B61BC5C3446655F7B61BC5C3446655F7B61BC5C3446655F7B61BC5C3446655F7B61BC5C3446655F7B61BC5C34
(1787928756.771256) can0 23A##59F2E71DF5E4971C59F2E71DF5E4971C59F2E71DF5E4971C59F2E71DF5E4971C
(1787928756.881072) can0 0E1##59
(1787928756.975177) can0 737##7F7F2A73635D6F427F7F2A73635D6F42
(1787928757.085215) can0 355##76D578758A9B767A76D578758A9B767A76D57875
(1787928757.179715) can0 692##CC391E52571A631ECC391E52571A631ECC391E52571A631ECC391E52571A631E
(1787928757.274198) can0 3EF##9BAA1D62DBDD55
(1787928757.384315) can0 1AC##90A4B47F959A8D0090A4B47F959A8D0090A4B47F959A8D0090A4B47F959A8D0090A4B47F959A8D0090A4B47F959A8D00
(1787928757.478419) can0 4FD##F656EA3437FF
(1787928757.572635) can0 2E3##2CE4D276C41B4A752CE4D276C41B4A752CE4D276C41B4A752CE4D276C41B4A752CE4D276C41B4A752CE4D276C41B4A752CE4D276C41B4A752CE4D276C41B4A75
(1787928757.682641) can0 390##6B2F0264C7E2
(1787928757.777111) can0 560##2A405C49B510E1122A405C49B510E112
(1787928757.871650) can0 515##
(1787928757.981522) can0 78D##FF5597087D435506FF5597087D435506FF5597087D435506
(1787928758.075678) can0 653##5821AB6C0090216D5821AB6C0090216D
(1787928758.185610) can0 418##952AAF6D15D19D61
(1787928758.280188) can0 7BE##4CD0D83BA15255674CD0D83BA15255674CD0D83B
(1787928758.374290) can0 2DA##656E9F5C6A667D7C656E9F5C
(1787928758.485379) can0 2FF##31
(1787928758.582130) can0 4BB##14011148D1910B4514011148D1910B4514011148
(1787928758.675318) can0 6FC##78CD3F
(1787928758.785752) can0 35F##06E23310B38991
(1787928758.880346) can0 411##B319B35029A0CE39B319B35029A0CE39B319B35029A0CE39B319B35029A0CE39B319B35029A0CE39B319B35029A0CE39B319B35029A0CE39B319B35029A0CE39
(1787928758.974548) can0 147##3E716C1B0699B250
(1787928759.084312) can0 5D3##A7EB0738AD906756A7EB0738AD906756A7EB0738
(1787928759.178569) can0 604##17F7E4520301164517F7E4520301164517F7E4520301164517F7E45203011645
(1787928759.273373) can0 7DE##62F1457A9944176D
(1787928759.383838) can0 1A3##6AD622329F68
(1787928759.479339) can0 7C9##290790
(1787928759.589214) can0 75A##DCBC2F306CEBC53BDCBC2F306CEBC53BDCBC2F306CEBC53BDCBC2F306CEBC53BDCBC2F306CEBC53BDCBC2F306CEBC53BDCBC2F306CEBC53BDCBC2F306CEBC53B
(1787928759.683867) can0 48E##958B9475D6B5E12E958B9475D6B5E12E958B9475D6B5E12E958B9475D6B5E12E958B9475D6B5E12E958B9475D6B5E12E958B9475D6B5E12E958B9475D6B5E12E
(1787928759.778152) can0 2D7##DC4E947F
(1787928759.888856) can0 65F##5771A8
