(1787928802.050311) can0 626#56A6E8
(1787928802.141164) can0 296#328F5977E4B2DA07
(1787928802.251435) can0 3F7#A420DB18E05BCA
(1787928802.345607) can0 12C#54C5D65A
(1787928802.440049) can0 46F#63888071C4D3DB56
(1787928802.549995) can0 2D8#380B8C4C29A39E39
(1787928802.644136) can0 2F4#B5
(1787928802.753750) can0 048#6F0B10786E6E3225
(1787928802.851996) can0 6BD#D325491153
(1787928802.947504) can0 480#376C837D77
(1787928803.042370) can0 66D#5824DC7C99EF1A56
(1787928803.152617) can0 31F#C94CB97E8EA74B3C
(1787928803.247705) can0 53B#527B271313A0182A
(1787928803.342599) can0 647#3C43B7633BB9B524
(1787928803.453011) can0 38B#AE
(1787928803.547623) can0 72B#426A735CE8F58573
(1787928803.643443) can0 7E2#3BAF2E696234
(1787928803.754151) can0 51B#DAFC
(1787928803.849083) can0 04D#21CB
(1787928803.944090) can0 2DE#FBB2C46519207F17
(1787928804.054357) can0 517#2CC097415E1B9813
(1787928804.148522) can0 4D8#99D44D386438556F
(1787928804.247663) can0 55A#38349626852C9C
(1787928804.353983) can0 565#6E22227E47BD0620
(1787928804.448181) can0 690#AAF14B61AC732567
(1787928804.542360) can0 51C#344F3B72
(1787928804.652255) can0 7B6#D6A08C74941A
(1787928804.746709) can0 240#AD3A
(1787928804.856509) can0 220#B53A1217F836DD2B
(1787928804.950630) can0 641#5C6F321B9B1B113B
(1787928805.045169) can0 696#2148AD45
(1787928805.155694) can0 20F#42A1B21F9F709835
(1787928805.252427) can0 438#4BE4BD1C54292379
(1787928805.345333) can0 170#
(1787928805.455225) can0 5D6#BAAB335F
(1787928805.549635) can0 366#6E9F3519863552
(1787928805.644015) can0 140#7F6C2F
(1787928805.754340) can0 172#1DFB744308D8351F
(1787928805.848719) can0 770#03BCE11E7FC1FC33
(1787928805.943161) can0 5CD#1E32956906
(1787928806.053037) can0 032#5A133571A2713409
(1787928806.148403) can0 1EA#C902AC7FC097B177
(1787928806.243222) can0 1AD#D6176D
(1787928806.353637) can0 4EB#9A1A9667
(1787928806.449175) can0 168#AD55F467DA7A9256
(1787928806.559275) can0 2F4#E252C87564E25116
(1787928806.654111) can0 409#E3A34E4AD7
(1787928806.749416) can0 42A#DD2B
(1787928806.844625) can0 46C#FFCD051C563683
(1787928806.954804) can0 150#16CE3447FD425F0E
(1787928807.049339) can0 74B#1028A30F3614E038
(1787928807.159745) can0 531#628A7018992E2F52
(1787928807.254358) can0 1C3#73A9C128B82C2618
(1787928807.348548) can0 0DA#1C0F782EE4
(1787928807.458368) can0 33A#
(1787928807.552577) can0 102#C1D343196E75E166
(1787928807.652452) can0 1CF#
(1787928807.747217) can0 288#1CC6B974D3F18C4B
(1787928807.857035) can0 7C6#0A066D04F7FC7F4D
(1787928807.951188) can0 0D7#902BAF1F9BFA946C
(1787928808.045323) can0 07B#5327BB
(1787928808.155856) can0 158#3A666A2992DC2E1A
(1787928808.250119) can0 16F#F753A12071
(1787928808.360500) can0 78D#DFE7853F5C11D22C
(1787928808.454799) can0 178#7C942C
(1787928808.549029) can0 57D#D32DB70B446DBF45
(1787928808.660311) can0 0C5#3B6A3F139D79D907
(1787928808.755320) can0 449#38746E74C534444A
(1787928808.850138) can0 2CF#1BD65413283C5A62
(1787928808.961065) can0 1FA#BA18897C6A
(1787928809.055300) can0 14A#DB
(1787928809.149558) can0 469#335A7A5BE15D3E46
(1787928809.259683) can0 15E#E1996806DCB6EF59
(1787928809.353881) can0 148#2024AF1F0D
(1787928809.447998) can0 392#AA0BAA0ADCBF454F
(1787928809.558266) can0 427#A1F4
(1787928809.652755) can0 36D#1FCB964368ED9E24
(1787928809.762548) can0 711#D2A8F57C5BB09E31
(1787928809.856667) can0 08B#32F94660F4E45934
(1787928809.950786) can0 468#D642987AC7
(1787928810.060589) can0 215#A34CCD5E5D8BF5
(1787928810.154790) can0 46C#6A1DC6
(1787928810.249558) can0 71E#DB5FAA0446
(1787928810.359908) can0 0F7#3DB2847865C4CA25
(1787928810.454074) can0 738#CDB1694A4926B134
(1787928810.563948) can0 135#A4D64F66C0B18559
(1787928810.658163) can0 14C#B596DF0DB51D
(1787928810.752292) can0 33B#7CB39F185065C02C
(1787928810.862235) can0 642#ADF0B54DAF5A991C
(1787928810.956327) can0 0E2#AEFAFD5100705427
(1787928811.050571) can0 72D#46939C3E24E0744D
(1787928811.160401) can0 705#89A43F
(1787928811.254552) can0 2DF#86F4A0741524
(1787928811.364719) can0 0F5#D5D5FD4842E2587A
(1787928811.458856) can0 300#F7FF1A0E3BBEDF23
(1787928811.553206) can0 615#8C23A0
(1787928811.663295) can0 392#0757670574241114
(1787928811.757434) can0 251#7494653B7E
(1787928811.851568) can0 43E#A339337D435BEA22
(1787928811.961327) can0 53E#8029DA621E306024
(1787928812.055656) can0 483#3354D81378E5
(1787928812.165494) can0 130#BAC77D2D3084F353
(1787928812.259613) can0 693#6B
(1787928812.353762) can0 324#00D9D67BB62E7B
(1787928812.463723) can0 231#2A538C14829C9B
(1787928812.557858) can0 1BC#01F65926FA2DB106
(1787928812.652081) can0 75A#3D899B29
(1787928812.761935) can0 5D0#B6AC771F53421C42
(1787928812.856046) can0 0C3#CC274175F3B95C16
(1787928812.965815) can0 2F2#233E506A85C1
(1787928813.060214) can0 738#2D9EE2565C32AB40
(1787928813.154346) can0 686#13612641B7606011
(1787928813.264356) can0 735#3AFDFB07F2289B2C
(1787928813.358489) can0 3DC#EC564C3336AB986F
(1787928813.452637) can0 2DF#CF27B06AAF30E365
(1787928813.562757) can0 2E7#0373FF27AB
(1787928813.657072) can0 56F#9E1DAB6361009E4D
(1787928813.766948) can0 255#E6C1
(1787928813.861063) can0 451#EA7302
(1787928813.955187) can0 741#8F23166C777E0B0F
(1787928814.065094) can0 13A#69A7A63B1725801B
(1787928814.159254) can0 404#4DD0180BE3
(1787928814.269130) can0 67F#92672E5A67713835
(1787928814.363258) can0 4A2#12D5860211
(1787928814.457394) can0 564#
(1787928814.567611) can0 672#4741C57DC32A4C64
(1787928814.661738) can0 46B#9B
(1787928814.755960) can0 22E#241AF84E6913CC72
(1787928814.865756) can0 1F3#80384C0EF7459241
(1787928814.959880) can0 7E2#DA7CDD35629E6C45
(1787928815.069799) can0 0EA#C90FA57A8CCD1E0F
(1787928815.164019) can0 702#9D6F874C6634A831
(1787928815.258117) can0 78B#20341611FE258B17
(1787928815.367953) can0 667#C150D77BD23AE578
(1787928815.462108) can0 299#7FD6D138C8B49368
(1787928815.556264) can0 786#31C85F
(1787928815.666114) can0 230#70
(1787928815.760242) can0 17E#75106751680A3F12
(1787928815.870065) can0 0B7#F4D75D21B9E7D01E
(1787928815.964237) can0 519#1F
(1787928816.058378) can0 1A0#
(1787928816.168182) can0 5A8#DA0A6532
(1787928816.262625) can0 1C0#09A5A14447E1C260
(1787928816.356737) can0 1FD#C062DE652D846905
(1787928816.466996) can0 5EB#40
(1787928816.561145) can0 67B#D281FD1E32
(1787928816.670986) can0 6F3#EB7E7F540C2C0F
(1787928816.765451) can0 158#B108A524F9FAB373
(1787928816.859627) can0 34B#00CB33
(1787928816.969474) can0 6B7#34A1005378F08F23
(1787928817.063644) can0 734#BFD152043189D03D
(1787928817.157762) can0 378#5E0D3A4364215141
(1787928817.267814) can0 6B0#CE980F4E2CCDD43F
(1787928817.361935) can0 254#
(1787928817.472020) can0 467#545D4F5EC015A95B
(1787928817.566171) can0 655#B9105D4FA0
(1787928817.660306) can0 159#931A766C10D07814
(1787928817.770340) can0 194#88C00838C868F9
(1787928817.864446) can0 205#F9F1C9647EB5BC
(1787928817.958554) can0 6C7#E2D60D5077254A
(1787928818.068385) can0 2F6#
(1787928818.162581) can0 250#933E
(1787928818.272678) can0 24C#78143C14A1B8A0
(1787928818.366835) can0 1ED#41
(1787928818.461441) can0 0EA#5643C27B
(1787928818.571688) can0 09B#461B4D63A1FA2924
(1787928818.665852) can0 626#1FB0E632ED5CB316
(1787928818.760536) can0 497#65
(1787928818.870821) can0 6B1#D81CC82001813C2C
(1787928818.965023) can0 40A#B97FCF6456066400
(1787928819.075205) can0 753#F7
(1787928819.169334) can0 162#866C86164DBACE3C
(1787928819.263892) can0 60C#CB6C2279A816D427
(1787928819.373887) can0 3BB#4911
(1787928819.468052) can0 551#CFA6ED4CE8A1A114
(1787928819.562224) can0 069#76B15E01
(1787928819.672202) can0 63D#1BC0274F476AC635
(1787928819.770824) can0 1BA#9E702A360D
(1787928819.876495) can0 406#4D1A254069
(1787928819.970652) can0 0CE#B64776
(1787928820.064800) can0 6AF#82
(1787928820.174878) can0 493#4D344265E5D18E40
(1787928820.268995) can0 033#CD7330559C60AB7E
(1787928820.363450) can0 451#B69F96
(1787928820.473294) can0 392#D50C
(1787928820.568258) can0 7A7#593ED8
(1787928820.662415) can0 509#1601605BD7BD
(1787928820.772850) can0 779#B1ECB54C28169D66
(1787928820.867373) can0 54E#9300A515
(1787928820.977372) can0 0FF#
(1787928821.071556) can0 7FD#CF011078
(1787928821.166289) can0 4D7#DCB654456998
(1787928821.276148) can0 158#B5
(1787928821.370712) can0 125#AC14D3002EEE9304
